#  HZ   S   DB   R     50.00 
! Rohde & Schwarz Vector Network Analyzer 
! Rohde-Schwarz,ZNA43-4Port,1332450044101989,2.61
! Created: UTC 10/22/2024, 1:32:35 PM
! freq[Hz]                db:S11                  ang:S11                 db:S21                  ang:S21                 db:S12                  ang:S12                 db:S22                  ang:S22
 1.500000000000000E9    -1.669819015298048E-1    1.494439376965817E2    -4.893368024469672E1     1.538653553331499E2    -4.884232942036783E1     1.555607478968730E2    -1.789692591357944E-1    1.499237797864386E2
 1.500200040008002E9    -1.678219353691746E-1    1.494056985094980E2    -4.897077466327772E1     1.539122726551041E2    -4.887025688747524E1     1.554405505151616E2    -1.789441723619047E-1    1.498867272836779E2
 1.500400080016003E9    -1.668837806584582E-1    1.493650327672010E2    -4.892045188403404E1     1.537186614268033E2    -4.883069560344844E1     1.553154756783329E2    -1.804595307915627E-1    1.498443272273014E2
 1.500600120024005E9    -1.668217613470155E-1    1.493242498727654E2    -4.893058718389352E1     1.537208317667950E2    -4.883186949137443E1     1.555170618484453E2    -1.802474564186106E-1    1.498058684957237E2
 1.500800160032007E9    -1.672010831508728E-1    1.492850979502069E2    -4.894697445964155E1     1.533825818701499E2    -4.886217904178380E1     1.552772096403347E2    -1.796755688633045E-1    1.497692204036680E2
 1.501000200040008E9    -1.665879433309572E-1    1.492433439169295E2    -4.891807489827863E1     1.536074482606034E2    -4.886900281567516E1     1.550941617504969E2    -1.785690545267657E-1    1.497324358025753E2
 1.501200240048010E9    -1.659071722560398E-1    1.492227188805501E2    -4.900434871180604E1     1.531537180012203E2    -4.883958622624771E1     1.550180334523802E2    -1.802300169261373E-1    1.496891168912678E2
 1.501400280056011E9    -1.671887967009993E-1    1.491695015043315E2    -4.895902825525341E1     1.536114644054474E2    -4.887641642993249E1     1.551190905292769E2    -1.803951543031651E-1    1.496495624362301E2
 1.501600320064013E9    -1.668193188852391E-1    1.491328221093330E2    -4.897202248704932E1     1.532756903633682E2    -4.885514328466616E1     1.547863333788459E2    -1.795537799500339E-1    1.496179899402486E2
 1.501800360072014E9    -1.661443613540700E-1    1.490994460599671E2    -4.896939055544307E1     1.531839345714298E2    -4.885294476232066E1     1.547978620787092E2    -1.800326298747007E-1    1.495776459978634E2
 1.502000400080016E9    -1.665170454025685E-1    1.490595994572116E2    -4.899772886524376E1     1.531141339862300E2    -4.884507404942921E1     1.545812489828128E2    -1.807975263413052E-1    1.495360656160503E2
 1.502200440088018E9    -1.659937400674875E-1    1.490168144342356E2    -4.894246159926070E1     1.528659399877802E2    -4.886610485272805E1     1.547377219062290E2    -1.805142461862046E-1    1.495045878502849E2
 1.502400480096019E9    -1.661523813369849E-1    1.489813568789038E2    -4.897576202594352E1     1.527324404977688E2    -4.886954818304228E1     1.546425240346658E2    -1.800201258746073E-1    1.494622572031036E2
 1.502600520104021E9    -1.658918688768117E-1    1.489397254427103E2    -4.895790785474851E1     1.528005231368342E2    -4.885763347793252E1     1.545148708449150E2    -1.800243294510265E-1    1.494238553080134E2
 1.502800560112022E9    -1.660489957656608E-1    1.489113437396632E2    -4.898781522743637E1     1.526260767803426E2    -4.884834820159709E1     1.543656867058651E2    -1.798795498280360E-1    1.493900995425976E2
 1.503000600120024E9    -1.675368498144842E-1    1.488695419970348E2    -4.896435356155760E1     1.525550896780557E2    -4.886766057107270E1     1.544896648232338E2    -1.803673423271008E-1    1.493554241111015E2
 1.503200640128026E9    -1.655296662793915E-1    1.488278728923366E2    -4.898296881857172E1     1.525339847576489E2    -4.888322572545621E1     1.544116110681772E2    -1.798660377737374E-1    1.493086624000273E2
 1.503400680136027E9    -1.655642750970487E-1    1.487874358211504E2    -4.900672713211787E1     1.523409851802867E2    -4.884467418743212E1     1.544418737715033E2    -1.809964121821822E-1    1.492628151228180E2
 1.503600720144029E9    -1.657744220483981E-1    1.487448937466716E2    -4.899847836687198E1     1.523238819974831E2    -4.885638590392996E1     1.542872577961816E2    -1.791860441031485E-1    1.492251130388028E2
 1.503800760152030E9    -1.643625527232067E-1    1.487217392821271E2    -4.894718035801795E1     1.520705526631427E2    -4.889651925964132E1     1.542809770484954E2    -1.782110988959140E-1    1.491956334144166E2
 1.504000800160032E9    -1.646236973611091E-1    1.486810785456568E2    -4.896326052289584E1     1.522814306628463E2    -4.887149775730974E1     1.540969187485003E2    -1.790499961882127E-1    1.491547396419902E2
 1.504200840168034E9    -1.648301136901179E-1    1.486335331156928E2    -4.896636298088525E1     1.519391408287821E2    -4.890938825195437E1     1.540835926881186E2    -1.802036944837968E-1    1.491257892347599E2
 1.504400880176035E9    -1.657077676662368E-1    1.485956059470971E2    -4.897868003461697E1     1.519149396497453E2    -4.882748321079501E1     1.537379681549031E2    -1.794420574587809E-1    1.490880523664213E2
 1.504600920184037E9    -1.655719702395418E-1    1.485559332070082E2    -4.901363283397937E1     1.520194908553786E2    -4.889483736468357E1     1.540203134924247E2    -1.804635342933747E-1    1.490377523453412E2
 1.504800960192038E9    -1.641622241292071E-1    1.485187393456882E2    -4.895421788756440E1     1.517451031127590E2    -4.884936579257812E1     1.534231256425778E2    -1.802430938140918E-1    1.490081177084592E2
 1.505001000200040E9    -1.648187474516378E-1    1.484868495453626E2    -4.896086053880569E1     1.519136375540811E2    -4.886633277972476E1     1.536926310243092E2    -1.803568318547111E-1    1.489663635661288E2
 1.505201040208042E9    -1.663814546527608E-1    1.484420770112228E2    -4.895701683733471E1     1.516899317222407E2    -4.884439185712097E1     1.537228422866850E2    -1.787945215962666E-1    1.489180870985039E2
 1.505401080216043E9    -1.654340937919159E-1    1.483982690711195E2    -4.900595428063526E1     1.515226125405269E2    -4.886690121888739E1     1.536039665556488E2    -1.790117756733359E-1    1.488968428924327E2
 1.505601120224045E9    -1.651985759576596E-1    1.483611223642865E2    -4.902505517314452E1     1.518409744390833E2    -4.887293338553673E1     1.534245393828122E2    -1.803669940696633E-1    1.488476720206081E2
 1.505801160232046E9    -1.645298198822969E-1    1.483252389372003E2    -4.894159180682482E1     1.514479288684572E2    -4.887280998557635E1     1.533928363293293E2    -1.794912013240498E-1    1.488117996205787E2
 1.506001200240048E9    -1.652303810108880E-1    1.482906712527372E2    -4.899863409605680E1     1.513246619609814E2    -4.886370867679722E1     1.534275293026574E2    -1.779750558353895E-1    1.487682721240481E2
 1.506201240248049E9    -1.662163459362417E-1    1.482483462105658E2    -4.900853268792950E1     1.515361045441788E2    -4.887378941421929E1     1.531260630619533E2    -1.797759322684204E-1    1.487271328654705E2
 1.506401280256051E9    -1.656120232490741E-1    1.482117431506860E2    -4.901677307026912E1     1.512103447761517E2    -4.886163063284793E1     1.532443091987913E2    -1.782010834218144E-1    1.486997506637938E2
 1.506601320264053E9    -1.652789073471977E-1    1.481726947080929E2    -4.898649641935574E1     1.513674296830970E2    -4.884870890963676E1     1.533329046126993E2    -1.797919726917631E-1    1.486547889258652E2
 1.506801360272054E9    -1.644847520906790E-1    1.481361981727770E2    -4.901097373866605E1     1.509383788807733E2    -4.883811840172963E1     1.531337597933729E2    -1.797960415679918E-1    1.486172831959068E2
 1.507001400280056E9    -1.639107242472429E-1    1.480986895969187E2    -4.900542941125416E1     1.509092736296788E2    -4.889763387347469E1     1.531802182178749E2    -1.814327985292244E-1    1.485782872423563E2
 1.507201440288058E9    -1.642272730089908E-1    1.480594146886576E2    -4.901587168165009E1     1.508542019068795E2    -4.885884573414091E1     1.528747952905867E2    -1.800475802327048E-1    1.485387928729267E2
 1.507401480296059E9    -1.650990885511039E-1    1.480173130954973E2    -4.897935031737384E1     1.509018880224974E2    -4.881247789346438E1     1.529526490745253E2    -1.800230888328037E-1    1.485054779323462E2
 1.507601520304061E9    -1.647658751599290E-1    1.479849684880921E2    -4.898674678843786E1     1.507139872433449E2    -4.886079666843956E1     1.528629689269233E2    -1.796968561493322E-1    1.484617294892410E2
 1.507801560312063E9    -1.639870040416765E-1    1.479414963708313E2    -4.902575895880457E1     1.507510922055744E2    -4.888256262321015E1     1.530499905378834E2    -1.798505175839278E-1    1.484197732081732E2
 1.508001600320064E9    -1.639588913907387E-1    1.478988260960056E2    -4.900324096560777E1     1.508952039574625E2    -4.885364326408457E1     1.528744359543819E2    -1.803562950783127E-1    1.483854955441005E2
 1.508201640328066E9    -1.658699150704567E-1    1.478618205842844E2    -4.899866115878345E1     1.506147018124443E2    -4.885274676408286E1     1.526957414925169E2    -1.803271590730202E-1    1.483458496241967E2
 1.508401680336067E9    -1.643602668740475E-1    1.478350531433795E2    -4.899684816557112E1     1.505254809706267E2    -4.885727121649195E1     1.527443831593183E2    -1.804177072271091E-1    1.483027714994581E2
 1.508601720344069E9    -1.651590150922482E-1    1.477860897928363E2    -4.898767830821015E1     1.506748335242831E2    -4.885919746899408E1     1.524710048968184E2    -1.794038130740578E-1    1.482725911297451E2
 1.508801760352070E9    -1.640937753324688E-1    1.477423655192961E2    -4.898834433960878E1     1.502277920789994E2    -4.889973440879863E1     1.524174988838567E2    -1.809929747728442E-1    1.482326911636279E2
 1.509001800360072E9    -1.657357640534070E-1    1.477213133306413E2    -4.899022154556357E1     1.505892675056481E2    -4.884898482923159E1     1.523670832888117E2    -1.796502726447542E-1    1.481955129269089E2
 1.509201840368074E9    -1.635096262470878E-1    1.476841330491108E2    -4.897985850472386E1     1.504048370381437E2    -4.881842987950187E1     1.526206188732655E2    -1.804805985607735E-1    1.481606196660184E2
 1.509401880376075E9    -1.660790039486212E-1    1.476337243011139E2    -4.897305130354071E1     1.501355775604327E2    -4.881203581850448E1     1.522750811491642E2    -1.804569991746869E-1    1.481118193805282E2
 1.509601920384077E9    -1.647195701225149E-1    1.476008818420328E2    -4.899063278121788E1     1.501632149443964E2    -4.882122617928955E1     1.523343369070070E2    -1.797780011399828E-1    1.480750925875606E2
 1.509801960392078E9    -1.635561663448171E-1    1.475607834297633E2    -4.898056577325676E1     1.500523468575578E2    -4.883695266994820E1     1.521206246977696E2    -1.807526802225228E-1    1.480395221222324E2
 1.510002000400080E9    -1.645317979126434E-1    1.475190102352859E2    -4.900528166714876E1     1.501531778849381E2    -4.883250945129785E1     1.522016716947849E2    -1.802611018939060E-1    1.479989510764307E2
 1.510202040408082E9    -1.646572364930385E-1    1.474842375730147E2    -4.899762544937691E1     1.499147470945397E2    -4.885469949914834E1     1.523315121234865E2    -1.805514040311898E-1    1.479623352413555E2
 1.510402080416083E9    -1.644121498774448E-1    1.474454261221342E2    -4.897224521375729E1     1.500727790242633E2    -4.884497316679519E1     1.520749755647302E2    -1.794084599258192E-1    1.479300478459415E2
 1.510602120424085E9    -1.646949775434954E-1    1.474013285327533E2    -4.896839180319782E1     1.500431244907985E2    -4.883911610944733E1     1.519708490106551E2    -1.804842847439619E-1    1.478932168716789E2
 1.510802160432086E9    -1.644649273015127E-1    1.473656892682408E2    -4.896476623659063E1     1.498095612021259E2    -4.882740805592606E1     1.520691792276506E2    -1.801538832894251E-1    1.478485193639170E2
 1.511002200440088E9    -1.640327430069898E-1    1.473302853025699E2    -4.898871156354239E1     1.495770261234473E2    -4.877964689793615E1     1.518441776697064E2    -1.802745243150278E-1    1.478033459948635E2
 1.511202240448090E9    -1.651422316115220E-1    1.472884071706440E2    -4.895231178501706E1     1.497836918630093E2    -4.882819501366519E1     1.516668133910038E2    -1.800962086795019E-1    1.477678264506694E2
 1.511402280456091E9    -1.637056154902138E-1    1.472502999216483E2    -4.896336664610865E1     1.496776367407726E2    -4.878786101960426E1     1.518649349013960E2    -1.799979096161791E-1    1.477328521372988E2
 1.511602320464093E9    -1.637890560413334E-1    1.472121280319396E2    -4.895137830094885E1     1.495985558562364E2    -4.886525203930850E1     1.518850708973926E2    -1.792120361758331E-1    1.476924286625180E2
 1.511802360472095E9    -1.645064766694465E-1    1.471766801407238E2    -4.898257403585185E1     1.495255153676088E2    -4.880339840478850E1     1.517874030540015E2    -1.784989337049507E-1    1.476589079917138E2
 1.512002400480096E9    -1.632735746931440E-1    1.471398173214728E2    -4.898363296868194E1     1.495141552012296E2    -4.880574814658470E1     1.514952930913157E2    -1.789861772827368E-1    1.476088492373850E2
 1.512202440488098E9    -1.630342230455178E-1    1.470929688757039E2    -4.898673996153391E1     1.494041348145255E2    -4.879557091219861E1     1.517519623669500E2    -1.796940916842806E-1    1.475767824418503E2
 1.512402480496099E9    -1.638480526061113E-1    1.470545034660209E2    -4.897331637141836E1     1.493038951558706E2    -4.879337652578243E1     1.512456148949594E2    -1.799885949774173E-1    1.475417836055747E2
 1.512602520504101E9    -1.647120289267918E-1    1.470238214542055E2    -4.897039243300011E1     1.494711357697623E2    -4.883545146351569E1     1.512720308480203E2    -1.807079767097367E-1    1.475002075664541E2
 1.512802560512102E9    -1.631411507466927E-1    1.469832881099084E2    -4.898297080247602E1     1.490369154380695E2    -4.878655340573061E1     1.512874237959814E2    -1.806016535831814E-1    1.474626221335238E2
 1.513002600520104E9    -1.635757119113239E-1    1.469403804081691E2    -4.895646224446423E1     1.493226556679101E2    -4.882414676208982E1     1.515772775661456E2    -1.811170131302113E-1    1.474186507104411E2
 1.513202640528106E9    -1.647370195722983E-1    1.468978445392239E2    -4.894664602166456E1     1.490085018848783E2    -4.879010602106113E1     1.514435559858332E2    -1.801128023858153E-1    1.473790078748628E2
 1.513402680536107E9    -1.655614513091653E-1    1.468618106295948E2    -4.893619659403716E1     1.490888255097651E2    -4.877028710141559E1     1.511553014590757E2    -1.804480029191723E-1    1.473427395408510E2
 1.513602720544109E9    -1.651751212840459E-1    1.468333140150570E2    -4.898421297912572E1     1.491384734235946E2    -4.878532498111434E1     1.508274525095555E2    -1.795666900881001E-1    1.473070502676936E2
 1.513802760552110E9    -1.642776370865954E-1    1.467778245286097E2    -4.892791134456581E1     1.487699701705074E2    -4.876265067663591E1     1.511050113199854E2    -1.799967198944123E-1    1.472652911431630E2
 1.514002800560112E9    -1.637004084088319E-1    1.467547771795581E2    -4.893878245143136E1     1.486925384422792E2    -4.879814532192844E1     1.512484664864573E2    -1.806510420512385E-1    1.472343743021216E2
 1.514202840568114E9    -1.636364390136858E-1    1.467078818550158E2    -4.893740004771396E1     1.486585945438726E2    -4.876052752336169E1     1.509227595252568E2    -1.797004022051296E-1    1.471915044077325E2
 1.514402880576115E9    -1.662877541016021E-1    1.466742494420464E2    -4.895387502514487E1     1.485021777568921E2    -4.880448138250198E1     1.508201833593513E2    -1.816286305078730E-1    1.471508569963732E2
 1.514602920584117E9    -1.649642079796113E-1    1.466313794974502E2    -4.890324897411206E1     1.485531558263978E2    -4.871004068803433E1     1.506836386898410E2    -1.798167477766143E-1    1.471113242362215E2
 1.514802960592119E9    -1.648403297212531E-1    1.465944265317774E2    -4.891684790190685E1     1.486113884346302E2    -4.877967649889711E1     1.507718746052537E2    -1.808078662826210E-1    1.470757528027543E2
 1.515003000600120E9    -1.638697588242325E-1    1.465604172705751E2    -4.891234403996251E1     1.483565135128936E2    -4.875857049643407E1     1.504957157306488E2    -1.808652128107777E-1    1.470263864038683E2
 1.515203040608122E9    -1.640403509571257E-1    1.465173738018466E2    -4.895043123595190E1     1.485260309976803E2    -4.873254080869067E1     1.505327414043489E2    -1.811570424500236E-1    1.469986507282066E2
 1.515403080616123E9    -1.647060080587422E-1    1.464766569069354E2    -4.892232401224551E1     1.482896737197393E2    -4.877464242209285E1     1.503788886167617E2    -1.819488586150838E-1    1.469551910299389E2
 1.515603120624125E9    -1.647216956692385E-1    1.464429504915325E2    -4.895157452012604E1     1.482355343446413E2    -4.875854739918400E1     1.505766919909888E2    -1.803363764170683E-1    1.469151734614957E2
 1.515803160632126E9    -1.638094224100173E-1    1.464063824564060E2    -4.890395626841820E1     1.483457788244325E2    -4.874770013343010E1     1.501866207525807E2    -1.798791013796565E-1    1.468829973475193E2
 1.516003200640128E9    -1.635471283213936E-1    1.463619174217442E2    -4.888092191909748E1     1.480134698535431E2    -4.874113157323827E1     1.500621305939950E2    -1.800281522713979E-1    1.468410118024983E2
 1.516203240648130E9    -1.647953862721994E-1    1.463263587470863E2    -4.888930658068623E1     1.481722507780002E2    -4.875919845484632E1     1.502287080941632E2    -1.804936325128140E-1    1.467972458081897E2
 1.516403280656131E9    -1.643581128782268E-1    1.462861336589000E2    -4.891057109916170E1     1.479681101375649E2    -4.873568677307805E1     1.499943626797956E2    -1.811899583193307E-1    1.467655077552638E2
 1.516603320664133E9    -1.654286005634967E-1    1.462491216266143E2    -4.893036460366887E1     1.480888197998658E2    -4.874243237980516E1     1.499963828962859E2    -1.814631706191769E-1    1.467172089065287E2
 1.516803360672134E9    -1.647092215908085E-1    1.462037836385060E2    -4.893233064524877E1     1.476687074577554E2    -4.872405848507006E1     1.501669470162628E2    -1.808031683635367E-1    1.466833913615670E2
 1.517003400680136E9    -1.645500076076378E-1    1.461731981322900E2    -4.895186022682906E1     1.478069800146185E2    -4.872546707608551E1     1.500585002736992E2    -1.814368285790224E-1    1.466489772236411E2
 1.517203440688138E9    -1.645173367455462E-1    1.461302923193214E2    -4.890689865044610E1     1.477724668255842E2    -4.875558171787830E1     1.497913333799663E2    -1.813945849507205E-1    1.466142797329598E2
 1.517403480696139E9    -1.653091758140174E-1    1.460961497460783E2    -4.889173429802428E1     1.476581051796374E2    -4.873228396862626E1     1.496960521673319E2    -1.812014012090872E-1    1.465739627573728E2
 1.517603520704141E9    -1.659603821728182E-1    1.460569233448380E2    -4.888997385578211E1     1.475631842458258E2    -4.872689387176572E1     1.494811769458160E2    -1.806578947052172E-1    1.465419890010302E2
 1.517803560712142E9    -1.651136906260978E-1    1.460105275289424E2    -4.896284692259088E1     1.477288423716352E2    -4.875131747172564E1     1.495529681943585E2    -1.811429333815617E-1    1.464927421804026E2
 1.518003600720144E9    -1.651946238010185E-1    1.459766581476038E2    -4.889365049200188E1     1.475259451587969E2    -4.869122948950395E1     1.499745241587725E2    -1.802048932981003E-1    1.464538877811176E2
