Freq.	V(n005)
1.00000000000000e+09	(-2.43314905032273e+02dB,-9.55669444997753e+01°)
1.00230523807790e+09	(-2.43118235730947e+02dB,-9.55832828502928e+01°)
1.00461579027839e+09	(-2.42921251620507e+02dB,-9.55997054645033e+01°)
1.00693166885180e+09	(-2.42723950654504e+02dB,-9.56162129634257e+01°)
1.00925288607668e+09	(-2.42526330769861e+02dB,-9.56328059746167e+01°)
1.01157945425990e+09	(-2.42328389886700e+02dB,-9.56494851322564e+01°)
1.01391138573668e+09	(-2.42130125908170e+02dB,-9.56662510772352e+01°)
1.01624869287070e+09	(-2.41931536720263e+02dB,-9.56831044572424e+01°)
1.01859138805412e+09	(-2.41732620191640e+02dB,-9.57000459268555e+01°)
1.02093948370768e+09	(-2.41533374173443e+02dB,-9.57170761476318e+01°)
1.02329299228075e+09	(-2.41333796499118e+02dB,-9.57341957882006e+01°)
1.02565192625141e+09	(-2.41133884984217e+02dB,-9.57514055243577e+01°)
1.02801629812647e+09	(-2.40933637426217e+02dB,-9.57687060391604e+01°)
1.03038612044162e+09	(-2.40733051604325e+02dB,-9.57860980230254e+01°)
1.03276140576140e+09	(-2.40532125279282e+02dB,-9.58035821738268e+01°)
1.03514216667934e+09	(-2.40330856193166e+02dB,-9.58211591969965e+01°)
1.03752841581801e+09	(-2.40129242069193e+02dB,-9.58388298056265e+01°)
1.03992016582906e+09	(-2.39927280611513e+02dB,-9.58565947205719e+01°)
1.04231742939330e+09	(-2.39724969505003e+02dB,-9.58744546705566e+01°)
1.04472021922080e+09	(-2.39522306415064e+02dB,-9.58924103922797e+01°)
1.04712854805090e+09	(-2.39319288987404e+02dB,-9.59104626305248e+01°)
1.04954242865232e+09	(-2.39115914847827e+02dB,-9.59286121382701e+01°)
1.05196187382322e+09	(-2.38912181602014e+02dB,-9.59468596768005e+01°)
1.05438689639126e+09	(-2.38708086835306e+02dB,-9.59652060158225e+01°)
1.05681750921366e+09	(-2.38503628112479e+02dB,-9.59836519335791e+01°)
1.05925372517729e+09	(-2.38298802977519e+02dB,-9.60021982169689e+01°)
1.06169555719872e+09	(-2.38093608953392e+02dB,-9.60208456616650e+01°)
1.06414301822431e+09	(-2.37888043541811e+02dB,-9.60395950722376e+01°)
1.06659612123026e+09	(-2.37682104223004e+02dB,-9.60584472622776e+01°)
1.06905487922266e+09	(-2.37475788455472e+02dB,-9.60774030545228e+01°)
1.07151930523760e+09	(-2.37269093675745e+02dB,-9.60964632809858e+01°)
1.07398941234124e+09	(-2.37062017298144e+02dB,-9.61156287830844e+01°)
1.07646521362983e+09	(-2.36854556714525e+02dB,-9.61349004117741e+01°)
1.07894672222983e+09	(-2.36646709294028e+02dB,-9.61542790276830e+01°)
1.08143395129794e+09	(-2.36438472382825e+02dB,-9.61737655012484e+01°)
1.08392691402120e+09	(-2.36229843303854e+02dB,-9.61933607128565e+01°)
1.08642562361706e+09	(-2.36020819356561e+02dB,-9.62130655529841e+01°)
1.08893009333343e+09	(-2.35811397816632e+02dB,-9.62328809223427e+01°)
1.09144033644875e+09	(-2.35601575935720e+02dB,-9.62528077320249e+01°)
1.09395636627209e+09	(-2.35391350941171e+02dB,-9.62728469036542e+01°)
1.09647819614318e+09	(-2.35180720035749e+02dB,-9.62929993695360e+01°)
1.09900583943252e+09	(-2.34969680397346e+02dB,-9.63132660728125e+01°)
1.10153930954141e+09	(-2.34758229178703e+02dB,-9.63336479676197e+01°)
1.10407861990207e+09	(-2.34546363507114e+02dB,-9.63541460192468e+01°)
1.10662378397766e+09	(-2.34334080484134e+02dB,-9.63747612042993e+01°)
1.10917481526240e+09	(-2.34121377185278e+02dB,-9.63954945108643e+01°)
1.11173172728159e+09	(-2.33908250659716e+02dB,-9.64163469386784e+01°)
1.11429453359173e+09	(-2.33694697929968e+02dB,-9.64373194992997e+01°)
1.11686324778056e+09	(-2.33480715991588e+02dB,-9.64584132162818e+01°)
1.11943788346715e+09	(-2.33266301812851e+02dB,-9.64796291253511e+01°)
1.12201845430196e+09	(-2.33051452334426e+02dB,-9.65009682745880e+01°)
1.12460497396692e+09	(-2.32836164469051e+02dB,-9.65224317246097e+01°)
1.12719745617551e+09	(-2.32620435101202e+02dB,-9.65440205487585e+01°)
1.12979591467280e+09	(-2.32404261086759e+02dB,-9.65657358332913e+01°)
1.13240036323555e+09	(-2.32187639252658e+02dB,-9.65875786775742e+01°)
1.13501081567231e+09	(-2.31970566396550e+02dB,-9.66095501942792e+01°)
1.13762728582343e+09	(-2.31753039286445e+02dB,-9.66316515095860e+01°)
1.14024978756117e+09	(-2.31535054660359e+02dB,-9.66538837633859e+01°)
1.14287833478977e+09	(-2.31316609225946e+02dB,-9.66762481094907e+01°)
1.14551294144553e+09	(-2.31097699660135e+02dB,-9.66987457158445e+01°)
1.14815362149688e+09	(-2.30878322608753e+02dB,-9.67213777647400e+01°)
1.15080038894443e+09	(-2.30658474686146e+02dB,-9.67441454530384e+01°)
1.15345325782109e+09	(-2.30438152474796e+02dB,-9.67670499923934e+01°)
1.15611224219210e+09	(-2.30217352524925e+02dB,-9.67900926094799e+01°)
1.15877735615512e+09	(-2.29996071354104e+02dB,-9.68132745462258e+01°)
1.16144861384034e+09	(-2.29774305446842e+02dB,-9.68365970600493e+01°)
1.16412602941049e+09	(-2.29552051254185e+02dB,-9.68600614241002e+01°)
1.16680961706096e+09	(-2.29329305193292e+02dB,-9.68836689275051e+01°)
1.16949939101987e+09	(-2.29106063647018e+02dB,-9.69074208756182e+01°)
1.17219536554813e+09	(-2.28882322963482e+02dB,-9.69313185902766e+01°)
1.17489755493953e+09	(-2.28658079455632e+02dB,-9.69553634100594e+01°)
1.17760597352080e+09	(-2.28433329400803e+02dB,-9.69795566905535e+01°)
1.18032063565173e+09	(-2.28208069040264e+02dB,-9.70038998046228e+01°)
1.18304155572516e+09	(-2.27982294578767e+02dB,-9.70283941426837e+01°)
1.18576874816716e+09	(-2.27756002184077e+02dB,-9.70530411129848e+01°)
1.18850222743701e+09	(-2.27529187986503e+02dB,-9.70778421418936e+01°)
1.19124200802737e+09	(-2.27301848078420e+02dB,-9.71027986741864e+01°)
1.19398810446427e+09	(-2.27073978513779e+02dB,-9.71279121733464e+01°)
1.19674053130724e+09	(-2.26845575307616e+02dB,-9.71531841218655e+01°)
1.19949930314937e+09	(-2.26616634435547e+02dB,-9.71786160215528e+01°)
1.20226443461741e+09	(-2.26387151833256e+02dB,-9.72042093938497e+01°)
1.20503594037179e+09	(-2.26157123395982e+02dB,-9.72299657801499e+01°)
1.20781383510678e+09	(-2.25926544977982e+02dB,-9.72558867421269e+01°)
1.21059813355048e+09	(-2.25695412392004e+02dB,-9.72819738620669e+01°)
1.21338885046497e+09	(-2.25463721408734e+02dB,-9.73082287432094e+01°)
1.21618600064636e+09	(-2.25231467756250e+02dB,-9.73346530100934e+01°)
1.21898959892486e+09	(-2.24998647119450e+02dB,-9.73612483089116e+01°)
1.22179966016487e+09	(-2.24765255139488e+02dB,-9.73880163078707e+01°)
1.22461619926504e+09	(-2.24531287413186e+02dB,-9.74149586975598e+01°)
1.22743923115840e+09	(-2.24296739492443e+02dB,-9.74420771913254e+01°)
1.23026877081238e+09	(-2.24061606883637e+02dB,-9.74693735256544e+01°)
1.23310483322890e+09	(-2.23825885047009e+02dB,-9.74968494605654e+01°)
1.23594743344451e+09	(-2.23589569396042e+02dB,-9.75245067800064e+01°)
1.23879658653036e+09	(-2.23352655296830e+02dB,-9.75523472922623e+01°)
1.24165230759241e+09	(-2.23115138067431e+02dB,-9.75803728303699e+01°)
1.24451461177138e+09	(-2.22877012977217e+02dB,-9.76085852525413e+01°)
1.24738351424294e+09	(-2.22638275246203e+02dB,-9.76369864425964e+01°)
1.25025903021771e+09	(-2.22398920044377e+02dB,-9.76655783104041e+01°)
1.25314117494141e+09	(-2.22158942491003e+02dB,-9.76943627923331e+01°)
1.25602996369487e+09	(-2.21918337653928e+02dB,-9.77233418517114e+01°)
1.25892541179416e+09	(-2.21677100548863e+02dB,-9.77525174792955e+01°)
1.26182753459066e+09	(-2.21435226138662e+02dB,-9.77818916937505e+01°)
1.26473634747115e+09	(-2.21192709332581e+02dB,-9.78114665421386e+01°)
1.26765186585784e+09	(-2.20949544985531e+02dB,-9.78412441004193e+01°)
1.27057410520854e+09	(-2.20705727897309e+02dB,-9.78712264739594e+01°)
1.27350308101666e+09	(-2.20461252811825e+02dB,-9.79014157980543e+01°)
1.27643880881134e+09	(-2.20216114416309e+02dB,-9.79318142384603e+01°)
1.27938130415752e+09	(-2.19970307340502e+02dB,-9.79624239919380e+01°)
1.28233058265602e+09	(-2.19723826155844e+02dB,-9.79932472868077e+01°)
1.28528665994361e+09	(-2.19476665374633e+02dB,-9.80242863835168e+01°)
1.28824955169313e+09	(-2.19228819449176e+02dB,-9.80555435752195e+01°)
1.29121927361353e+09	(-2.18980282770928e+02dB,-9.80870211883684e+01°)
1.29419584144998e+09	(-2.18731049669610e+02dB,-9.81187215833202e+01°)
1.29717927098395e+09	(-2.18481114412309e+02dB,-9.81506471549537e+01°)
1.30016957803328e+09	(-2.18230471202570e+02dB,-9.81828003333018e+01°)
1.30316677845229e+09	(-2.17979114179464e+02dB,-9.82151835841972e+01°)
1.30617088813183e+09	(-2.17727037416642e+02dB,-9.82477994099327e+01°)
1.30918192299940e+09	(-2.17474234921371e+02dB,-9.82806503499355e+01°)
1.31219989901920e+09	(-2.17220700633553e+02dB,-9.83137389814578e+01°)
1.31522483219223e+09	(-2.16966428424720e+02dB,-9.83470679202811e+01°)
1.31825673855640e+09	(-2.16711412097023e+02dB,-9.83806398214381e+01°)
1.32129563418657e+09	(-2.16455645382189e+02dB,-9.84144573799494e+01°)
1.32434153519466e+09	(-2.16199121940463e+02dB,-9.84485233315779e+01°)
1.32739445772973e+09	(-2.15941835359534e+02dB,-9.84828404535997e+01°)
1.33045441797808e+09	(-2.15683779153434e+02dB,-9.85174115655927e+01°)
1.33352143216332e+09	(-2.15424946761424e+02dB,-9.85522395302438e+01°)
1.33659551654643e+09	(-2.15165331546846e+02dB,-9.85873272541736e+01°)
1.33967668742593e+09	(-2.14904926795971e+02dB,-9.86226776887812e+01°)
1.34276496113786e+09	(-2.14643725716808e+02dB,-9.86582938311076e+01°)
1.34586035405594e+09	(-2.14381721437898e+02dB,-9.86941787247200e+01°)
1.34896288259165e+09	(-2.14118907007088e+02dB,-9.87303354606162e+01°)
1.35207256319427e+09	(-2.13855275390269e+02dB,-9.87667671781502e+01°)
1.35518941235103e+09	(-2.13590819470106e+02dB,-9.88034770659798e+01°)
1.35831344658715e+09	(-2.13325532044726e+02dB,-9.88404683630366e+01°)
1.36144468246594e+09	(-2.13059405826395e+02dB,-9.88777443595185e+01°)
1.36458313658892e+09	(-2.12792433440158e+02dB,-9.89153083979063e+01°)
1.36772882559584e+09	(-2.12524607422459e+02dB,-9.89531638740047e+01°)
1.37088176616484e+09	(-2.12255920219727e+02dB,-9.89913142380075e+01°)
1.37404197501251e+09	(-2.11986364186944e+02dB,-9.90297629955893e+01°)
1.37720946889394e+09	(-2.11715931586169e+02dB,-9.90685137090231e+01°)
1.38038426460288e+09	(-2.11444614585050e+02dB,-9.91075699983251e+01°)
1.38356637897177e+09	(-2.11172405255289e+02dB,-9.91469355424276e+01°)
1.38675582887188e+09	(-2.10899295571091e+02dB,-9.91866140803804e+01°)
1.38995263121334e+09	(-2.10625277407568e+02dB,-9.92266094125817e+01°)
1.39315680294529e+09	(-2.10350342539119e+02dB,-9.92669254020395e+01°)
1.39636836105593e+09	(-2.10074482637774e+02dB,-9.93075659756643e+01°)
1.39958732257261e+09	(-2.09797689271504e+02dB,-9.93485351255935e+01°)
1.40281370456195e+09	(-2.09519953902494e+02dB,-9.93898369105498e+01°)
1.40604752412990e+09	(-2.09241267885383e+02dB,-9.94314754572325e+01°)
1.40928879842187e+09	(-2.08961622465468e+02dB,-9.94734549617448e+01°)
1.41253754462274e+09	(-2.08681008776863e+02dB,-9.95157796910570e+01°)
1.41579377995707e+09	(-2.08399417840631e+02dB,-9.95584539845063e+01°)
1.41905752168908e+09	(-2.08116840562861e+02dB,-9.96014822553356e+01°)
1.42232878712281e+09	(-2.07833267732724e+02dB,-9.96448689922713e+01°)
1.42560759360218e+09	(-2.07548690020466e+02dB,-9.96886187611420e+01°)
1.42889395851109e+09	(-2.07263097975375e+02dB,-9.97327362065385e+01°)
1.43218789927353e+09	(-2.06976482023693e+02dB,-9.97772260535176e+01°)
1.43548943335365e+09	(-2.06688832466491e+02dB,-9.98220931093496e+01°)
1.43879857825583e+09	(-2.06400139477493e+02dB,-9.98673422653123e+01°)
1.44211535152486e+09	(-2.06110393100850e+02dB,-9.99129784985312e+01°)
1.44543977074592e+09	(-2.05819583248873e+02dB,-9.99590068738695e+01°)
1.44877185354475e+09	(-2.05527699699712e+02dB,-1.00005432545867e+02°)
1.45211161758773e+09	(-2.05234732094979e+02dB,-1.00052260760732e+02°)
1.45545908058195e+09	(-2.04940669937327e+02dB,-1.00099496858385e+02°)
1.45881426027534e+09	(-2.04645502587969e+02dB,-1.00147146274559e+02°)
1.46217717445671e+09	(-2.04349219264141e+02dB,-1.00195214542954e+02°)
1.46554784095590e+09	(-2.04051809036514e+02dB,-1.00243707297453e+02°)
1.46892627764386e+09	(-2.03753260826538e+02dB,-1.00292630274398e+02°)
1.47231250243271e+09	(-2.03453563403736e+02dB,-1.00341989314924e+02°)
1.47570653327588e+09	(-2.03152705382928e+02dB,-1.00391790367365e+02°)
1.47910838816820e+09	(-2.02850675221393e+02dB,-1.00442039489717e+02°)
1.48251808514594e+09	(-2.02547461215973e+02dB,-1.00492742852178e+02°)
1.48593564228699e+09	(-2.02243051500095e+02dB,-1.00543906739754e+02°)
1.48936107771090e+09	(-2.01937434040742e+02dB,-1.00595537554939e+02°)
1.49279440957898e+09	(-2.01630596635336e+02dB,-1.00647641820469e+02°)
1.49623565609442e+09	(-2.01322526908561e+02dB,-1.00700226182159e+02°)
1.49968483550236e+09	(-2.01013212309104e+02dB,-1.00753297411816e+02°)
1.50314196609001e+09	(-2.00702640106319e+02dB,-1.00806862410234e+02°)
1.50660706618673e+09	(-2.00390797386815e+02dB,-1.00860928210278e+02°)
1.51008015416414e+09	(-2.00077671050960e+02dB,-1.00915501980060e+02°)
1.51356124843620e+09	(-1.99763247809301e+02dB,-1.00970591026197e+02°)
1.51705036745932e+09	(-1.99447514178900e+02dB,-1.01026202797173e+02°)
1.52054752973248e+09	(-1.99130456479573e+02dB,-1.01082344886797e+02°)
1.52405275379728e+09	(-1.98812060830052e+02dB,-1.01139025037761e+02°)
1.52756605823806e+09	(-1.98492313144035e+02dB,-1.01196251145304e+02°)
1.53108746168202e+09	(-1.98171199126155e+02dB,-1.01254031260984e+02°)
1.53461698279928e+09	(-1.97848704267839e+02dB,-1.01312373596562e+02°)
1.53815464030302e+09	(-1.97524813843064e+02dB,-1.01371286528010e+02°)
1.54170045294955e+09	(-1.97199512904018e+02dB,-1.01430778599624e+02°)
1.54525443953840e+09	(-1.96872786276634e+02dB,-1.01490858528279e+02°)
1.54881661891247e+09	(-1.96544618556028e+02dB,-1.01551535207801e+02°)
1.55238700995807e+09	(-1.96214994101813e+02dB,-1.01612817713480e+02°)
1.55596563160506e+09	(-1.95883897033289e+02dB,-1.01674715306716e+02°)
1.55955250282694e+09	(-1.95551311224525e+02dB,-1.01737237439813e+02°)
1.56314764264094e+09	(-1.95217220299297e+02dB,-1.01800393760923e+02°)
1.56675107010813e+09	(-1.94881607625903e+02dB,-1.01864194119138e+02°)
1.57036280433354e+09	(-1.94544456311845e+02dB,-1.01928648569747e+02°)
1.57398286446620e+09	(-1.94205749198369e+02dB,-1.01993767379659e+02°)
1.57761126969933e+09	(-1.93865468854858e+02dB,-1.02059561032996e+02°)
1.58124803927037e+09	(-1.93523597573082e+02dB,-1.02126040236865e+02°)
1.58489319246110e+09	(-1.93180117361293e+02dB,-1.02193215927315e+02°)
1.58854674859776e+09	(-1.92835009938162e+02dB,-1.02261099275487e+02°)
1.59220872705115e+09	(-1.92488256726553e+02dB,-1.02329701693962e+02°)
1.59587914723672e+09	(-1.92139838847127e+02dB,-1.02399034843315e+02°)
1.59955802861465e+09	(-1.91789737111775e+02dB,-1.02469110638891e+02°)
1.60324539069003e+09	(-1.91437932016874e+02dB,-1.02539941257789e+02°)
1.60694125301286e+09	(-1.91084403736344e+02dB,-1.02611539146097e+02°)
1.61064563517825e+09	(-1.90729132114536e+02dB,-1.02683917026351e+02°)
1.61435855682647e+09	(-1.90372096658898e+02dB,-1.02757087905252e+02°)
1.61808003764305e+09	(-1.90013276532455e+02dB,-1.02831065081645e+02°)
1.62181009735891e+09	(-1.89652650546067e+02dB,-1.02905862154762e+02°)
1.62554875575047e+09	(-1.89290197150473e+02dB,-1.02981493032749e+02°)
1.62929603263970e+09	(-1.88925894428108e+02dB,-1.03057971941486e+02°)
1.63305194789432e+09	(-1.88559720084680e+02dB,-1.03135313433713e+02°)
1.63681652142779e+09	(-1.88191651440519e+02dB,-1.03213532398462e+02°)
1.64058977319952e+09	(-1.87821665421663e+02dB,-1.03292644070834e+02°)
1.64437172321491e+09	(-1.87449738550685e+02dB,-1.03372664042104e+02°)
1.64816239152549e+09	(-1.87075846937264e+02dB,-1.03453608270191e+02°)
1.65196179822900e+09	(-1.86699966268466e+02dB,-1.03535493090500e+02°)
1.65576996346951e+09	(-1.86322071798741e+02dB,-1.03618335227142e+02°)
1.65958690743754e+09	(-1.85942138339622e+02dB,-1.03702151804570e+02°)
1.66341265037015e+09	(-1.85560140249124e+02dB,-1.03786960359622e+02°)
1.66724721255104e+09	(-1.85176051420804e+02dB,-1.03872778854016e+02°)
1.67109061431069e+09	(-1.84789845272512e+02dB,-1.03959625687287e+02°)
1.67494287602642e+09	(-1.84401494734783e+02dB,-1.04047519710212e+02°)
1.67880401812254e+09	(-1.84010972238879e+02dB,-1.04136480238726e+02°)
1.68267406107045e+09	(-1.83618249704460e+02dB,-1.04226527068359e+02°)
1.68655302538872e+09	(-1.83223298526874e+02dB,-1.04317680489210e+02°)
1.69044093164324e+09	(-1.82826089564051e+02dB,-1.04409961301492e+02°)
1.69433780044731e+09	(-1.82426593122975e+02dB,-1.04503390831663e+02°)
1.69824365246172e+09	(-1.82024778945743e+02dB,-1.04597990949174e+02°)
1.70215850839493e+09	(-1.81620616195165e+02dB,-1.04693784083861e+02°)
1.70608238900310e+09	(-1.81214073439916e+02dB,-1.04790793244012e+02°)
1.71001531509027e+09	(-1.80805118639195e+02dB,-1.04889042035135e+02°)
1.71395730750840e+09	(-1.80393719126896e+02dB,-1.04988554679462e+02°)
1.71790838715757e+09	(-1.79979841595260e+02dB,-1.05089356036224e+02°)
1.72186857498599e+09	(-1.79563452077983e+02dB,-1.05191471622732e+02°)
1.72583789199018e+09	(-1.79144515932772e+02dB,-1.05294927636302e+02°)
1.72981635921508e+09	(-1.78722997823312e+02dB,-1.05399750977056e+02°)
1.73380399775412e+09	(-1.78298861700637e+02dB,-1.05505969271655e+02°)
1.73780082874935e+09	(-1.77872070783860e+02dB,-1.05613610897998e+02°)
1.74180687339159e+09	(-1.77442587540259e+02dB,-1.05722705010936e+02°)
1.74582215292048e+09	(-1.77010373664668e+02dB,-1.05833281569048e+02°)
1.74984668862464e+09	(-1.76575390058171e+02dB,-1.05945371362534e+02°)
1.75388050184174e+09	(-1.76137596806043e+02dB,-1.06059006042281e+02°)
1.75792361395867e+09	(-1.75696953154931e+02dB,-1.06174218150151e+02°)
1.76197604641161e+09	(-1.75253417489217e+02dB,-1.06291041150566e+02°)
1.76603782068614e+09	(-1.74806947306560e+02dB,-1.06409509463435e+02°)
1.77010895831740e+09	(-1.74357499192549e+02dB,-1.06529658498518e+02°)
1.77418948089014e+09	(-1.73905028794450e+02dB,-1.06651524691270e+02°)
1.77827941003890e+09	(-1.73449490794005e+02dB,-1.06775145540261e+02°)
1.78237876744807e+09	(-1.72990838879227e+02dB,-1.06900559646249e+02°)
1.78648757485203e+09	(-1.72529025715172e+02dB,-1.07027806752986e+02°)
1.79060585403527e+09	(-1.72064002913615e+02dB,-1.07156927789854e+02°)
1.79473362683250e+09	(-1.71595721001602e+02dB,-1.07287964916423e+02°)
1.79887091512876e+09	(-1.71124129388815e+02dB,-1.07420961569037e+02°)
1.80301774085955e+09	(-1.70649176333703e+02dB,-1.07555962509530e+02°)
1.80717412601090e+09	(-1.70170808908317e+02dB,-1.07693013876199e+02°)
1.81134009261958e+09	(-1.69688972961794e+02dB,-1.07832163237138e+02°)
1.81551566277311e+09	(-1.69203613082425e+02dB,-1.07973459646087e+02°)
1.81970085860996e+09	(-1.68714672558237e+02dB,-1.08116953700903e+02°)
1.82389570231961e+09	(-1.68222093336028e+02dB,-1.08262697604832e+02°)
1.82810021614272e+09	(-1.67725815978772e+02dB,-1.08410745230716e+02°)
1.83231442237119e+09	(-1.67225779621317e+02dB,-1.08561152188310e+02°)
1.83653834334832e+09	(-1.66721921924302e+02dB,-1.08713975894884e+02°)
1.84077200146893e+09	(-1.66214179026194e+02dB,-1.08869275649302e+02°)
1.84501541917945e+09	(-1.65702485493364e+02dB,-1.09027112709771e+02°)
1.84926861897805e+09	(-1.65186774268090e+02dB,-1.09187550375485e+02°)
1.85353162341479e+09	(-1.64666976614401e+02dB,-1.09350654072389e+02°)
1.85780445509167e+09	(-1.64143022061642e+02dB,-1.09516491443305e+02°)
1.86208713666284e+09	(-1.63614838345642e+02dB,-1.09685132442682e+02°)
1.86637969083464e+09	(-1.63082351347371e+02dB,-1.09856649436257e+02°)
1.87068214036578e+09	(-1.62545485028954e+02dB,-1.10031117305912e+02°)
1.87499450806739e+09	(-1.62004161366889e+02dB,-1.10208613560066e+02°)
1.87931681680324e+09	(-1.61458300282351e+02dB,-1.10389218449925e+02°)
1.88364908948977e+09	(-1.60907819568398e+02dB,-1.10573015091971e+02°)
1.88799134909627e+09	(-1.60352634813928e+02dB,-1.10760089597080e+02°)
1.89234361864495e+09	(-1.59792659324213e+02dB,-1.10950531206689e+02°)
1.89670592121112e+09	(-1.59227804037815e+02dB,-1.11144432436471e+02°)
1.90107827992327e+09	(-1.58657977439687e+02dB,-1.11341889228000e+02°)
1.90546071796322e+09	(-1.58083085470252e+02dB,-1.11543001108934e+02°)
